
**** 08/28/18 03:19:23 ********* PSpice 9.2 (Mar 2000) ******** ID# 1 ********

 * C:\Users\Enrique\Desktop\schematic\Schematic1.sch


 ****     CIRCUIT DESCRIPTION


******************************************************************************




* Schematics Version 9.2
* Tue Aug 28 03:01:07 2018



** Analysis setup **
.tran 0 20ms
.OP 


* From [PSPICE NETLIST] section of C:\Program Files\Orcad\PSpice\PSpice.ini:
.lib "nom.lib"

.INC "Schematic1.net"



**** INCLUDING Schematic1.net ****
* Schematics Netlist *



D_D1         $N_0001 $N_0002 Dbreak 
M_M3         $N_0001 $N_0003 0 0 IRFP250
C_C1         0 $N_0002  50u  
V_V2         $N_0003 0 DC 0 AC 0
+PULSE 0 10 0 10n 10n 23.38u 33.4u
L_L1         $N_0004 $N_0001  100uH  
R_RCarga         0 $N_0002  50  
V_V1         $N_0004 0 DC 18 AC 0 

**** RESUMING Schematic1.cir ****
.PROBE V(*) I(*) W(*) D(*) NOISE(*) 


.END

**** 08/28/18 03:19:23 ********* PSpice 9.2 (Mar 2000) ******** ID# 1 ********

 * C:\Users\Enrique\Desktop\schematic\Schematic1.sch


 ****     Diode MODEL PARAMETERS


******************************************************************************




               Dbreak          
          IS   10.000000E-15 
          RS     .1          
         CJO  100.000000E-15 


**** 08/28/18 03:19:23 ********* PSpice 9.2 (Mar 2000) ******** ID# 1 ********

 * C:\Users\Enrique\Desktop\schematic\Schematic1.sch


 ****     MOSFET MODEL PARAMETERS


******************************************************************************




               IRFP250         
               NMOS            
       LEVEL    3            
           L    2.000000E-06 
           W    1.2          
         VTO    3.573        
          KP   21.040000E-06 
       GAMMA    0            
         PHI     .6          
      LAMBDA    0            
          RD     .04988      
          RS    7.336000E-03 
          RG    5.029        
         RDS  888.900000E+03 
          IS   17.840000E-12 
          JS    0            
          PB     .8          
        PBSW     .8          
         CBD    4.368000E-09 
          CJ    0            
        CJSW    0            
          TT  340.000000E-09 
        CGSO    1.458000E-09 
        CGDO  367.400000E-12 
        CGBO    0            
         TOX  100.000000E-09 
          XJ    0            
       UCRIT   10.000000E+03 
       DELTA    0            
         ETA    0            
      DIOMOD    1            
         VFB    0            
        LETA    0            
        WETA    0            
          U0    0            
        TEMP    0            
         VDD    0            
       XPART    0            


**** 08/28/18 03:19:23 ********* PSpice 9.2 (Mar 2000) ******** ID# 1 ********

 * C:\Users\Enrique\Desktop\schematic\Schematic1.sch


 ****     SMALL SIGNAL BIAS SOLUTION       TEMPERATURE =   27.000 DEG C


******************************************************************************



 NODE   VOLTAGE     NODE   VOLTAGE     NODE   VOLTAGE     NODE   VOLTAGE


($N_0001)   18.0000                   ($N_0002)   17.1600                       

($N_0003)    0.0000                   ($N_0004)   18.0000                   




    VOLTAGE SOURCE CURRENTS
    NAME         CURRENT

    V_V2         0.000E+00
    V_V1        -3.432E-01

    TOTAL POWER DISSIPATION   6.18E+00  WATTS


**** 08/28/18 03:19:23 ********* PSpice 9.2 (Mar 2000) ******** ID# 1 ********

 * C:\Users\Enrique\Desktop\schematic\Schematic1.sch


 ****     OPERATING POINT INFORMATION      TEMPERATURE =   27.000 DEG C


******************************************************************************






**** DIODES


NAME         D_D1      
MODEL        Dbreak    
ID           3.43E-01 
VD           8.40E-01 
REQ          7.54E-02 
CAP          1.85E-13 


**** MOSFETS


NAME         M_M3      
MODEL        IRFP250   
ID           2.03E-05 
VGS          0.00E+00 
VDS          1.80E+01 
VBS          0.00E+00 
VTH          3.57E+00 
VDSAT        0.00E+00 
Lin0/Sat1   -1.00E+00 
if          -1.00E+00 
ir          -1.00E+00 
TAU         -1.00E+00 
GM           0.00E+00 
GDS          1.13E-06 
GMB          0.00E+00 
CBD          9.01E-10 
CBS          2.35E-16 
CGSOV        1.75E-09 
CGDOV        4.41E-10 
CGBOV        0.00E+00 
CGS          0.00E+00 
CGD          0.00E+00 
CGB          8.29E-10 
**** 08/28/18 03:19:23 ********* PSpice 9.2 (Mar 2000) ******** ID# 1 ********

 * C:\Users\Enrique\Desktop\schematic\Schematic1.sch


 ****     INITIAL TRANSIENT SOLUTION       TEMPERATURE =   27.000 DEG C


******************************************************************************



 NODE   VOLTAGE     NODE   VOLTAGE     NODE   VOLTAGE     NODE   VOLTAGE


($N_0001)   18.0000                   ($N_0002)   17.1600                       

($N_0003)    0.0000                   ($N_0004)   18.0000                   




    VOLTAGE SOURCE CURRENTS
    NAME         CURRENT

    V_V2         0.000E+00
    V_V1        -3.432E-01

    TOTAL POWER DISSIPATION   6.18E+00  WATTS



          JOB CONCLUDED

          TOTAL JOB TIME            3.81
